Freq.	V(n001)	Ix(U1:OUT)	Ix(U2:OUT)
1.00000000000000e-01	6.72564634685914e-06,-1.09359478269379e-12	5.09189780037372e-09,-4.02038921270070e-14	1.89228751463094e-10,1.29630020411688e-13
1.07977516232771e-01	6.72564634678867e-06,-1.06929684742120e-12	5.09189779649777e-09,-3.72764843802561e-14	1.89228770274382e-10,1.20051233405152e-13
1.16591440117983e-01	6.72564634672822e-06,-1.05130121164809e-12	5.09189779317336e-09,-3.45687791048871e-14	1.89228786408751e-10,1.11180009905956e-13
1.25892541179417e-01	6.72564634667637e-06,-1.03950181497315e-12	5.09189779032205e-09,-3.20648175973734e-14	1.89228800247137e-10,1.02964064986606e-13
1.35935639087853e-01	6.72564634663190e-06,-1.03382911614641e-12	5.09189778787648e-09,-2.97498419534645e-14	1.89228812116266e-10,9.53549756365224e-14
1.46779926762207e-01	6.72564634659376e-06,-1.03424968336613e-12	5.09189778577891e-09,-2.76102080958104e-14	1.89228822296371e-10,8.83078954043890e-14
1.58489319246111e-01	6.72564634656104e-06,-1.04076599736634e-12	5.09189778397986e-09,-2.56333053644679e-14	1.89228831027807e-10,8.17812901191487e-14
1.71132830416178e-01	6.72564634653298e-06,-1.05341646614234e-12	5.09189778243680e-09,-2.38074821967863e-14	1.89228838516725e-10,7.57366931206626e-14
1.84784979742229e-01	6.72564634650890e-06,-1.07227565140619e-12	5.09189778111332e-09,-2.21219774589414e-14	1.89228844939940e-10,7.01384785588952e-14
1.99526231496888e-01	6.72564634648825e-06,-1.09745470811051e-12	5.09189777997819e-09,-2.05668570245751e-14	1.89228850449106e-10,6.49536514498729e-14
2.15443469003188e-01	6.72564634647054e-06,-1.12910203963660e-12	5.09189777900457e-09,-1.91329552270624e-14	1.89228855174295e-10,6.01516532036834e-14
2.32630506715363e-01	6.72564634645534e-06,-1.16740417250853e-12	5.09189777816951e-09,-1.78118208403173e-14	1.89228859227070e-10,5.57041815427145e-14
2.51188643150958e-01	6.72564634644230e-06,-1.21258685579315e-12	5.09189777745328e-09,-1.65956672700166e-14	1.89228862703119e-10,5.15850236957967e-14
2.71227257933203e-01	6.72564634643111e-06,-1.26491639166681e-12	5.09189777683896e-09,-1.54773266617179e-14	1.89228865684512e-10,4.77699019055804e-14
2.92864456462524e-01	6.72564634642150e-06,-1.32470120499179e-12	5.09189777631206e-09,-1.44502076554435e-14	1.89228868241640e-10,4.42363303481886e-14
3.16227766016838e-01	6.72564634641325e-06,-1.39229366115508e-12	5.09189777586013e-09,-1.35082565378317e-14	1.89228870434879e-10,4.09634826099209e-14
3.41454887383360e-01	6.72564634640617e-06,-1.46809214288463e-12	5.09189777547251e-09,-1.26459215629389e-14	1.89228872316010e-10,3.79320689411161e-14
3.68694506451958e-01	6.72564634640009e-06,-1.55254339828412e-12	5.09189777514004e-09,-1.18581202314445e-14	1.89228873929449e-10,3.51242225618746e-14
3.98107170553497e-01	6.72564634639486e-06,-1.64614517392514e-12	5.09189777485487e-09,-1.11402093353843e-14	1.89228875313288e-10,3.25233943700938e-14
4.29866234708228e-01	6.72564634639035e-06,-1.74944914851802e-12	5.09189777461027e-09,-1.04879575919772e-14	1.89228876500201e-10,3.01142553953760e-14
4.64158883361278e-01	6.72564634638648e-06,-1.86306418445071e-12	5.09189777440047e-09,-9.89752070518792e-15	1.89228877518211e-10,2.78826064563047e-14
5.01187233627272e-01	6.72564634638313e-06,-1.98765991636071e-12	5.09189777422050e-09,-9.36541870806531e-15	1.89228878391353e-10,2.58152944842803e-14
5.41169526546464e-01	6.72564634638024e-06,-2.12397069789285e-12	5.09189777406613e-09,-8.88851545245653e-15	1.89228879140243e-10,2.39001349728521e-14
5.84341413373518e-01	6.72564634637773e-06,-2.27279992990033e-12	5.09189777393370e-09,-8.46400012494744e-15	1.89228879782562e-10,2.21258401981474e-14
6.30957344480193e-01	6.72564634637555e-06,-2.43502479560440e-12	5.09189777382011e-09,-8.08937068041179e-15	1.89228880333476e-10,2.04819526677885e-14
6.81292069057961e-01	6.72564634637364e-06,-2.61160143061755e-12	5.09189777372264e-09,-7.76241909529917e-15	1.89228880805991e-10,1.89587834947161e-14
7.35642254459641e-01	6.72564634637196e-06,-2.80357055830299e-12	5.09189777363901e-09,-7.48121835384303e-15	1.89228881211264e-10,1.75473552980473e-14
7.94328234724282e-01	6.72564634637047e-06,-3.01206362368623e-12	5.09189777356725e-09,-7.24411109055164e-15	1.89228881558864e-10,1.62393492715067e-14
8.57695898590894e-01	6.72564634636913e-06,-3.23830946206788e-12	5.09189777350564e-09,-7.04969982186510e-15	1.89228881856997e-10,1.50270561753420e-14
9.26118728128794e-01	6.72564634636792e-06,-3.48364154164528e-12	5.09189777345277e-09,-6.89683870959537e-15	1.89228882112703e-10,1.39033308919720e-14
1.00000000000000e+00	6.72564634636680e-06,-3.74950582282826e-12	5.09189777340736e-09,-6.78462680749589e-15	1.89228882332019e-10,1.28615503189967e-14
1.07977516232771e+00	6.72564634636575e-06,-4.03746928057380e-12	5.09189777336833e-09,-6.71240275131386e-15	1.89228882520122e-10,1.18955742928001e-14
1.16591440117983e+00	6.72564634636474e-06,-4.34922913996098e-12	5.09189777333478e-09,-6.67974086057667e-15	1.89228882681455e-10,1.09997094833063e-14
1.25892541179417e+00	6.72564634636375e-06,-4.68662287945424e-12	5.09189777330591e-09,-6.68644862992512e-15	1.89228882819826e-10,1.01686757504426e-14
1.35935639087853e+00	6.72564634636276e-06,-5.05163906079800e-12	5.09189777328104e-09,-6.73256559438975e-15	1.89228882938502e-10,9.39757507245061e-15
1.46779926762207e+00	6.72564634636173e-06,-5.44642904938248e-12	5.09189777325958e-09,-6.81836356244961e-15	1.89228883040285e-10,8.68186266451190e-15
1.58489319246111e+00	6.72564634636066e-06,-5.87331969415488e-12	5.09189777324101e-09,-6.94434821799431e-15	1.89228883127579e-10,8.01732021289394e-15
1.71132830416178e+00	6.72564634635950e-06,-6.33482704181405e-12	5.09189777322492e-09,-7.11126210087669e-15	1.89228883202444e-10,7.40003097446676e-15
1.84784979742229e+00	6.72564634635824e-06,-6.83367116611421e-12	5.09189777321091e-09,-7.32008898336526e-15	1.89228883266648e-10,6.82635669208432e-15
1.99526231496888e+00	6.72564634635685e-06,-7.37279219967881e-12	5.09189777319865e-09,-7.57205966823071e-15	1.89228883321706e-10,6.29291621259041e-15
2.15443469003188e+00	6.72564634635529e-06,-7.95536766282366e-12	5.09189777318787e-09,-7.86865924315793e-15	1.89228883368920e-10,5.79656548620081e-15
2.32630506715363e+00	6.72564634635353e-06,-8.58483119151098e-12	5.09189777317830e-09,-8.21163583354682e-15	1.89228883409402e-10,5.33437909061059e-15
2.51188643150958e+00	6.72564634635152e-06,-9.26489277482731e-12	5.09189777316971e-09,-8.60301090597218e-15	1.89228883444111e-10,4.90363291421769e-15
2.71227257933203e+00	6.72564634634922e-06,-9.99956062124596e-12	5.09189777316191e-09,-9.04509118211579e-15	1.89228883473863e-10,4.50178824052724e-15
2.92864456462524e+00	6.72564634634657e-06,-1.07931647825774e-11	5.09189777315469e-09,-9.54048223480688e-15	1.89228883499364e-10,4.12647660655773e-15
3.16227766016838e+00	6.72564634634351e-06,-1.16503826748135e-11	5.09189777314791e-09,-1.00921038446136e-14	1.89228883521213e-10,3.77548598287680e-15
3.41454887383360e+00	6.72564634633996e-06,-1.25762666463112e-11	5.09189777314141e-09,-1.07032072090456e-14	1.89228883539927e-10,3.44674760991707e-15
3.68694506451958e+00	6.72564634633586e-06,-1.35762737557682e-11	5.09189777313500e-09,-1.13773941041068e-14	1.89228883555949e-10,3.13832404970249e-15
3.98107170553497e+00	6.72564634633108e-06,-1.46562979355472e-11	5.09189777312857e-09,-1.21186381137361e-14	1.89228883569656e-10,2.84839740251040e-15
4.29866234708228e+00	6.72564634632554e-06,-1.58227047298521e-11	5.09189777312195e-09,-1.29313080488623e-14	1.89228883581371e-10,2.57525889894799e-15
4.64158883361278e+00	6.72564634631908e-06,-1.70823688125559e-11	5.09189777311498e-09,-1.38201936970849e-14	1.89228883591372e-10,2.31729868273313e-15
5.01187233627272e+00	6.72564634631156e-06,-1.84427145057704e-11	5.09189777310749e-09,-1.47905340529075e-14	1.89228883599895e-10,2.07299641653837e-15
5.41169526546464e+00	6.72564634630281e-06,-1.99117595379953e-11	5.09189777309932e-09,-1.58480481962194e-14	1.89228883607141e-10,1.84091216253787e-15
5.84341413373518e+00	6.72564634629262e-06,-2.14981622997269e-11	5.09189777309027e-09,-1.69989689996830e-14	1.89228883613281e-10,1.61967798705596e-15
6.30957344480193e+00	6.72564634628074e-06,-2.32112728750574e-11	5.09189777308015e-09,-1.82500798642620e-14	1.89228883618459e-10,1.40799002637295e-15
6.81292069057961e+00	6.72564634626690e-06,-2.50611881500551e-11	5.09189777306866e-09,-1.96087547003630e-14	1.89228883622799e-10,1.20460060629309e-15
7.35642254459641e+00	6.72564634625076e-06,-2.70588113227009e-11	5.09189777305560e-09,-2.10830013886233e-14	1.89228883626402e-10,1.00831097595125e-15
7.94328234724281e+00	6.72564634623196e-06,-2.92159161651442e-11	5.09189777304061e-09,-2.26815089775912e-14	1.89228883629354e-10,8.17964201629259e-16
8.57695898590894e+00	6.72564634621003e-06,-3.15452164170207e-11	5.09189777302336e-09,-2.44136988957198e-14	1.89228883631725e-10,6.32438462816966e-16
9.26118728128793e+00	6.72564634618448e-06,-3.40604407188493e-11	5.09189777300343e-09,-2.62897804806993e-14	1.89228883633569e-10,4.50640265623841e-16
1.00000000000000e+01	6.72564634615468e-06,-3.67764135271361e-11	5.09189777298038e-09,-2.83208111522484e-14	1.89228883634932e-10,2.71497969806833e-16
1.07977516232771e+01	6.72564634611995e-06,-3.97091424880719e-11	5.09189777295362e-09,-3.05187615819638e-14	1.89228883635845e-10,9.39559889176239e-17
1.16591440117983e+01	6.72564634607945e-06,-4.28759127848856e-11	5.09189777292255e-09,-3.28965862494012e-14	1.89228883636329e-10,-8.30322801337604e-17
1.25892541179417e+01	6.72564634603224e-06,-4.62953890147882e-11	5.09189777288642e-09,-3.54682997926099e-14	1.89228883636397e-10,-2.60509967560526e-16
1.35935639087853e+01	6.72564634597720e-06,-4.99877251960685e-11	5.09189777284438e-09,-3.82490596091690e-14	1.89228883636049e-10,-4.39522989440297e-16
1.46779926762207e+01	6.72564634591302e-06,-5.39746835536893e-11	5.09189777279544e-09,-4.12552551933999e-14	1.89228883635278e-10,-6.21126654573659e-16
1.58489319246111e+01	6.72564634583821e-06,-5.82797627834108e-11	5.09189777273847e-09,-4.45046047317772e-14	1.89228883634065e-10,-8.06390952656693e-16
1.71132830416178e+01	6.72564634575097e-06,-6.29283365505931e-11	5.09189777267207e-09,-4.80162595355812e-14	1.89228883632381e-10,-9.96408218562332e-16
1.84784979742229e+01	6.72564634564926e-06,-6.79478030397294e-11	5.09189777259471e-09,-5.18109169128827e-14	1.89228883630187e-10,-1.19229815969169e-15
1.99526231496888e+01	6.72564634553069e-06,-7.33677464363834e-11	5.09189777250457e-09,-5.59109421585196e-14	1.89228883627432e-10,-1.39521532680813e-15
2.15443469003188e+01	6.72564634539243e-06,-7.92201112931305e-11	5.09189777239949e-09,-6.03405003724930e-14	1.89228883624049e-10,-1.60635584372616e-15
2.32630506715363e+01	6.72564634523124e-06,-8.55393908072257e-11	5.09189777227703e-09,-6.51256988852642e-14	1.89228883619960e-10,-1.82696402358887e-15
2.51188643150958e+01	6.72564634504331e-06,-9.23628301197345e-11	5.09189777213427e-09,-7.02947411321053e-14	1.89228883615067e-10,-2.05833993215349e-15
2.71227257933203e+01	6.72564634482419e-06,-9.97306458343356e-11	5.09189777196782e-09,-7.58780928826484e-14	1.89228883609256e-10,-2.30184765186398e-15
2.92864456462524e+01	6.72564634456873e-06,-1.07686263049512e-10	5.09189777177381e-09,-8.19086617997344e-14	1.89228883602388e-10,-2.55892217148030e-15
3.16227766016838e+01	6.72564634427087e-06,-1.16276571301362e-10	5.09189777154760e-09,-8.84219913962004e-14	1.89228883594302e-10,-2.83107883759606e-15
3.41454887383360e+01	6.72564634392360e-06,-1.25552200925324e-10	5.09189777128390e-09,-9.54564705219500e-14	1.89228883584806e-10,-3.11992134762477e-15
3.68694506451957e+01	6.72564634351871e-06,-1.35567821465876e-10	5.09189777097642e-09,-1.03053559627227e-13	1.89228883573677e-10,-3.42715256317393e-15
3.98107170553497e+01	6.72564634304664e-06,-1.46382463892725e-10	5.09189777061797e-09,-1.11258035120846e-13	1.89228883560653e-10,-3.75458262418227e-15
4.29866234708228e+01	6.72564634249625e-06,-1.58059868522966e-10	5.09189777020004e-09,-1.20118253284086e-13	1.89228883545424e-10,-4.10414212939463e-15
4.64158883361278e+01	6.72564634185455e-06,-1.70668860699364e-10	5.09189776971279e-09,-1.29686435270473e-13	1.89228883527632e-10,-4.47789094904841e-15
5.01187233627272e+01	6.72564634110637e-06,-1.84283756439418e-10	5.09189776914469e-09,-1.40018974895931e-13	1.89228883506857e-10,-4.87803203476981e-15
5.41169526546464e+01	6.72564634023406e-06,-1.98984800445720e-10	5.09189776848234e-09,-1.51176771015204e-13	1.89228883482608e-10,-5.30692345895945e-15
5.84341413373518e+01	6.72564633921703e-06,-2.14858639059422e-10	5.09189776771012e-09,-1.63225586456187e-13	1.89228883454313e-10,-5.76709352398173e-15
6.30957344480193e+01	6.72564633803125e-06,-2.31998830944105e-10	5.09189776680977e-09,-1.76236435614644e-13	1.89228883421304e-10,-6.26125411395006e-15
6.81292069057961e+01	6.72564633664874e-06,-2.50506398510232e-10	5.09189776576003e-09,-1.90286003008459e-13	1.89228883382801e-10,-6.79231791234450e-15
7.35642254459641e+01	6.72564633503684e-06,-2.70490423329971e-10	5.09189776453612e-09,-2.05457095245375e-13	1.89228883337894e-10,-7.36341470667340e-15
7.94328234724281e+01	6.72564633315751e-06,-2.92068689051887e-10	5.09189776310919e-09,-2.21839129078673e-13	1.89228883285525e-10,-7.97791087006215e-15
8.57695898590894e+01	6.72564633096638e-06,-3.15368375604569e-10	5.09189776144548e-09,-2.39528658417010e-13	1.89228883224457e-10,-8.63942825434121e-15
9.26118728128793e+01	6.72564632841170e-06,-3.40526808780871e-10	5.09189775950575e-09,-2.58629943401095e-13	1.89228883153247e-10,-9.35186506274052e-15
1.00000000000000e+02	6.72564632543317e-06,-3.67692269620783e-10	5.09189775724419e-09,-2.79255564905994e-13	1.89228883070214e-10,-1.01194206193144e-14
1.07977516232771e+02	6.72564632196045e-06,-3.97024868363133e-10	5.09189775460741e-09,-3.01527088079260e-13	1.89228882973398e-10,-1.09466197987555e-14
1.16591440117983e+02	6.72564631791156e-06,-4.28697488117000e-10	5.09189775153313e-09,-3.25575778822427e-13	1.89228882860514e-10,-1.18383360455076e-14
1.25892541179417e+02	6.72564631319090e-06,-4.62896803815353e-10	5.09189774794880e-09,-3.51543377474304e-13	1.89228882728895e-10,-1.27998265123218e-14
1.35935639087853e+02	6.72564630768701e-06,-4.99824382455441e-10	5.09189774376979e-09,-3.79582934199176e-13	1.89228882575435e-10,-1.38367581183171e-14
1.46779926762207e+02	6.72564630126995e-06,-5.39697871111378e-10	5.09189773889742e-09,-4.09859711048056e-13	1.89228882396509e-10,-1.49552414348700e-14
1.58489319246111e+02	6.72564629378821e-06,-5.82752279720762e-10	5.09189773321664e-09,-4.42552156002237e-13	1.89228882187894e-10,-1.61618698269707e-14
1.71132830416178e+02	6.72564628506514e-06,-6.29241366205336e-10	5.09189772659335e-09,-4.77852954713421e-13	1.89228881944665e-10,-1.74637540798088e-14
1.84784979742229e+02	6.72564627489479e-06,-6.79439132090072e-10	5.09189771887115e-09,-5.15970166177918e-13	1.89228881661077e-10,-1.88685673046622e-14
1.99526231496888e+02	6.72564626303703e-06,-7.33641437435088e-10	5.09189770986774e-09,-5.57128449014017e-13	1.89228881330437e-10,-2.03845912097958e-14
2.15443469003188e+02	6.72564624921189e-06,-7.92167744598213e-10	5.09189769937053e-09,-6.01570385554531e-13	1.89228880944936e-10,-2.20207582178401e-14
2.32630506715363e+02	6.72564623309297e-06,-8.55363001106673e-10	5.09189768713169e-09,-6.49557911621855e-13	1.89228880495475e-10,-2.37867135641407e-14
2.51188643150958e+02	6.72564621429968e-06,-9.23599672733594e-10	5.09189767286222e-09,-7.01373860330386e-13	1.89228879971439e-10,-2.56928668965044e-14
2.71227257933203e+02	6.72564619238832e-06,-9.97279938762441e-10	5.09189765622524e-09,-7.57323629054784e-13	1.89228879360458e-10,-2.77504486464964e-14
2.92864456462524e+02	6.72564616684155e-06,-1.07683806237850e-09	5.09189763682799e-09,-8.17736979436259e-13	1.89228878648105e-10,-2.99715894248325e-14
3.16227766016838e+02	6.72564613705620e-06,-1.16274295015565e-09	5.09189761421243e-09,-8.82969980923148e-13	1.89228877817562e-10,-3.23693805822565e-14
3.41454887383360e+02	6.72564610232903e-06,-1.25550091572490e-09	5.09189758784463e-09,-9.53407109397443e-13	1.89228876849219e-10,-3.49579528655638e-14
3.68694506451957e+02	6.72564606184013e-06,-1.35565866391191e-09	5.09189755710202e-09,-1.02946351321987e-12	1.89228875720214e-10,-3.77525601563333e-14
3.98107170553497e+02	6.72564601463353e-06,-1.46380651293138e-09	5.09189752125879e-09,-1.11158746008477e-12	1.89228874403889e-10,-4.07696824116417e-14
4.29866234708228e+02	6.72564595959468e-06,-1.58058187362546e-09	5.09189747946864e-09,-1.20026297895462e-12	1.89228872869167e-10,-4.40270916641305e-14
4.64158883361278e+02	6.72564589542410e-06,-1.70667300625615e-09	5.09189743074489e-09,-1.29601271294163e-12	1.89228871079813e-10,-4.75439935147497e-14
5.01187233627272e+02	6.72564582060669e-06,-1.84282307698566e-09	5.09189737393718e-09,-1.39940099960733e-12	1.89228868993578e-10,-5.13411160639283e-14
5.41169526546464e+02	6.72564573337600e-06,-1.98983453795458e-09	5.09189730770427e-09,-1.51103719706507e-12	1.89228866561207e-10,-5.54408342387293e-14
5.84341413373517e+02	6.72564563167249e-06,-2.14857385676982e-09	5.09189723048236e-09,-1.63157927545095e-12	1.89228863725270e-10,-5.98673167377169e-14
6.30957344480193e+02	6.72564551309490e-06,-2.31997662327090e-09	5.09189714044822e-09,-1.76173769480604e-12	1.89228860418810e-10,-6.46466506853358e-14
6.81292069057961e+02	6.72564537484358e-06,-2.50505306367102e-09	5.09189703547612e-09,-1.90227959237974e-12	1.89228856563760e-10,-6.98070041652180e-14
7.35642254459641e+02	6.72564521365439e-06,-2.70489399456417e-09	5.09189691308766e-09,-2.05403330392060e-12	1.89228852069105e-10,-7.53787869275575e-14
7.94328234724281e+02	6.72564502572161e-06,-2.92067725188418e-09	5.09189677039319e-09,-2.21789324570923e-12	1.89228846828718e-10,-8.13948526339027e-14
8.57695898590894e+02	6.72564480660808e-06,-3.15367463269211e-09	5.09189660402365e-09,-2.39482518582908e-12	1.89228840718878e-10,-8.78906420996403e-14
9.26118728128793e+02	6.72564455114047e-06,-3.40525939070169e-09	5.09189641005104e-09,-2.58587193621151e-12	1.89228833595330e-10,-9.49044482566921e-14
1.00000000000000e+03	6.72564425328714e-06,-3.67691432969467e-09	5.09189618389559e-09,-2.79215949848132e-12	1.89228825289880e-10,-1.02477612691923e-13
1.07977516232771e+03	6.72564390601569e-06,-3.97024054251267e-09	5.09189592021773e-09,-3.01490370010786e-12	1.89228815606438e-10,-1.10654766913496e-13
1.16591440117983e+03	6.72564350112695e-06,-4.28696684710536e-09	5.09189561279194e-09,-3.25541735992727e-12	1.89228804316373e-10,-1.19484109643218e-13
1.25892541179417e+03	6.72564302906141e-06,-4.62895997521490e-09	5.09189525435985e-09,-3.51511802511785e-12	1.89228791153127e-10,-1.29017674280303e-13
1.35935639087853e+03	6.72564247867347e-06,-4.99823557370937e-09	5.09189483645876e-09,-3.79553632537798e-12	1.89228775805907e-10,-1.39311655985995e-13
1.46779926762207e+03	6.72564183696837e-06,-5.39697008334909e-09	5.09189434922198e-09,-4.09832499325371e-12	1.89228757912379e-10,-1.50426705359427e-13
1.58489319246111e+03	6.72564108879532e-06,-5.82751356494072e-09	5.09189378114570e-09,-4.42526860418998e-12	1.89228737050048e-10,-1.62428363447042e-13
1.71132830416178e+03	6.72564021648979e-06,-6.29240354837805e-09	5.09189311881754e-09,-4.77829409286616e-12	1.89228712726367e-10,-1.75387345476362e-13
1.84784979742229e+03	6.72563919945652e-06,-6.79437998610737e-09	5.09189234659983e-09,-5.15948210867370e-12	1.89228684367043e-10,-1.89380034700653e-13
1.99526231496888e+03	6.72563801368319e-06,-7.33640139900642e-09	5.09189144626039e-09,-5.57107927638082e-12	1.89228651302517e-10,-2.04488894090710e-13
2.15443469003188e+03	6.72563663117353e-06,-7.92166230968255e-09	5.09189039654213e-09,-6.01551143460835e-12	1.89228612752118e-10,-2.20802981472017e-13
2.32630506715363e+03	6.72563501928636e-06,-8.55361206572581e-09	5.09188917266102e-09,-6.49539792962453e-12	1.89228567805681e-10,-2.38418435469206e-13
2.51188643150958e+03	6.72563313996491e-06,-9.23597516360523e-09	5.09188774572118e-09,-7.01356704892117e-12	1.89228515401999e-10,-2.57439091189218e-13
